Circuit: * E:\1. Undergraduate Studies\1. Course Materials\Year_3_Semester_1\ECE331\ece331-labs\lab1-sims\dc_op_pnt.asc

Model "ald1102": Oxide thickness thinner than recommended for a level 2 MOSFET.
Instance "m2": Length shorter than recommended for a level 2 MOSFET.
Model "ald1101": Oxide thickness thinner than recommended for a level 2 MOSFET.
Instance "m1": Length shorter than recommended for a level 2 MOSFET.
Instance "m3": Length shorter than recommended for a level 2 MOSFET.
Direct Newton iteration for .op point succeeded.
Semiconductor Device Operating Points:
                        --- MOSFET Transistors ---
Name:          m2          m1          m3
Model:       ald1102     ald1101     ald1101
Id:         -5.50e-04    1.05e-03    5.42e-04
Vgs:        -1.34e+00    1.38e+00    1.18e+00
Vds:        -2.63e+00    2.73e+00    5.22e-01
Vbs:         0.00e+00    0.00e+00    0.00e+00
Vth:        -7.67e-01    7.13e-01    7.13e-01
Vdsat:      -4.60e-01    4.55e-01    3.34e-01
Gm:          1.53e-03    2.99e-03    2.10e-03
Gds:         2.81e-05    1.28e-05    2.13e-05
Gmb:         4.24e-04    1.42e-03    1.03e-03
Cbd:         0.00e+00    0.00e+00    0.00e+00
Cbs:         0.00e+00    0.00e+00    0.00e+00
Cgsov:       2.00e-12    1.59e-12    1.59e-12
Cgdov:       2.00e-12    1.59e-12    1.59e-12
Cgbov:       0.00e+00    0.00e+00    0.00e+00
Cgs:         4.00e-12    3.17e-12    3.17e-12
Cgd:         0.00e+00    0.00e+00    0.00e+00
Cgb:         0.00e+00    0.00e+00    0.00e+00



Date: Tue Sep 24 11:06:08 2019
Total elapsed time: 0.266 seconds.

tnom = 27
temp = 27
method = trap
totiter = 5
traniter = 0
tranpoints = 0
accept = 0
rejected = 0
matrix size = 21
fillins = 0
solver = Normal
Matrix Compiler1: 752 bytes object code size
Matrix Compiler2: 1.47 KB object code size
